Title: Constant values
Date: Sun Oct 30 03:21:03 UTC 2022
Plotname: constants
Flags: real
No. Variables: 5
No. Points: 57
Variables:
	0	yes	notype dims=1
	1	wnv	notype
	2	wpv	notype
	3	trv	notype
	4	tfv	notype
Values:
 0	1.000000000000000e+00
	4.200000000000000e-01
	3.270000000000000e+00
	1.078681000000000e-10
	1.829851000000000e-10

 1	0.000000000000000e+00
	4.700000000000000e-01
	3.220000000000000e+00
	1.023161000000000e-10
	1.587894000000000e-10

 2	0.000000000000000e+00
	5.200000000000000e-01
	3.170000000000000e+00
	9.827463000000000e-11
	1.413481000000000e-10

 3	0.000000000000000e+00
	5.700000000000001e-01
	3.120000000000001e+00
	9.750757999999999e-11
	1.343642000000000e-10

 4	0.000000000000000e+00
	6.200000000000001e-01
	3.070000000000001e+00
	9.529703999999999e-11
	1.233273000000000e-10

 5	0.000000000000000e+00
	6.700000000000002e-01
	3.020000000000001e+00
	9.318305999999999e-11
	1.128582000000000e-10

 6	0.000000000000000e+00
	7.200000000000002e-01
	2.970000000000001e+00
	9.363822000000001e-11
	1.098433000000000e-10

 7	0.000000000000000e+00
	7.700000000000002e-01
	2.920000000000001e+00
	9.374050000000000e-11
	1.057529000000000e-10

 8	0.000000000000000e+00
	8.200000000000003e-01
	2.870000000000001e+00
	9.381218000000000e-11
	1.013809000000000e-10

 9	0.000000000000000e+00
	8.700000000000003e-01
	2.820000000000002e+00
	9.379561000000000e-11
	9.667858000000000e-11

 10	0.000000000000000e+00
	9.200000000000004e-01
	2.770000000000002e+00
	9.388071000000000e-11
	9.211427000000000e-11

 11	0.000000000000000e+00
	9.700000000000004e-01
	2.720000000000002e+00
	9.428029000000000e-11
	8.824519999999999e-11

 12	0.000000000000000e+00
	1.020000000000000e+00
	2.670000000000002e+00
	9.512392999999998e-11
	8.543297000000000e-11

 13	0.000000000000000e+00
	1.070000000000001e+00
	2.620000000000002e+00
	9.641375999999999e-11
	8.367774000000000e-11

 14	0.000000000000000e+00
	1.120000000000001e+00
	2.570000000000003e+00
	9.784824999999999e-11
	8.212832000000000e-11

 15	0.000000000000000e+00
	1.170000000000001e+00
	2.520000000000003e+00
	9.943491999999998e-11
	8.076900999999999e-11

 16	0.000000000000000e+00
	1.220000000000001e+00
	2.470000000000003e+00
	1.011674000000000e-10
	7.956872999999999e-11

 17	0.000000000000000e+00
	1.270000000000001e+00
	2.420000000000003e+00
	1.029946000000000e-10
	7.837329000000000e-11

 18	0.000000000000000e+00
	1.320000000000001e+00
	2.370000000000003e+00
	1.048270000000000e-10
	7.676767000000000e-11

 19	0.000000000000000e+00
	1.370000000000001e+00
	2.320000000000003e+00
	1.068450000000000e-10
	7.537760999999999e-11

 20	0.000000000000000e+00
	1.420000000000001e+00
	2.270000000000004e+00
	1.090441000000000e-10
	7.416623000000000e-11

 21	0.000000000000000e+00
	1.470000000000001e+00
	2.220000000000004e+00
	1.114236000000000e-10
	7.310992000000000e-11

 22	0.000000000000000e+00
	1.520000000000001e+00
	2.170000000000004e+00
	1.139815000000000e-10
	7.219369000000000e-11

 23	0.000000000000000e+00
	1.570000000000001e+00
	2.120000000000004e+00
	1.167237000000000e-10
	7.139898999999999e-11

 24	0.000000000000000e+00
	1.620000000000001e+00
	2.070000000000004e+00
	1.196558000000000e-10
	7.071139000000000e-11

 25	0.000000000000000e+00
	1.670000000000001e+00
	2.020000000000004e+00
	1.227792000000000e-10
	7.012586999999999e-11

 26	0.000000000000000e+00
	1.720000000000001e+00
	1.970000000000004e+00
	1.262459000000000e-10
	6.980785999999999e-11

 27	0.000000000000000e+00
	1.770000000000001e+00
	1.920000000000004e+00
	1.300049000000000e-10
	6.961100999999999e-11

 28	0.000000000000000e+00
	1.820000000000001e+00
	1.870000000000004e+00
	1.339881000000000e-10
	6.953052999999999e-11

 29	0.000000000000000e+00
	1.870000000000001e+00
	1.820000000000004e+00
	1.382069000000000e-10
	6.958082000000000e-11

 30	0.000000000000000e+00
	1.920000000000001e+00
	1.770000000000004e+00
	1.426727000000000e-10
	6.976550999999999e-11

 31	0.000000000000000e+00
	1.970000000000001e+00
	1.720000000000004e+00
	1.474063000000000e-10
	7.007249999999999e-11

 32	0.000000000000000e+00
	2.020000000000001e+00
	1.670000000000004e+00
	1.509055000000000e-10
	7.023461000000000e-11

 33	0.000000000000000e+00
	2.070000000000001e+00
	1.620000000000004e+00
	1.530947000000000e-10
	7.022223000000000e-11

 34	0.000000000000000e+00
	2.120000000000001e+00
	1.570000000000004e+00
	1.587810000000000e-10
	7.078295999999999e-11

 35	0.000000000000000e+00
	2.170000000000001e+00
	1.520000000000004e+00
	1.649817000000000e-10
	7.146817000000000e-11

 36	0.000000000000000e+00
	2.220000000000001e+00
	1.470000000000004e+00
	1.717660000000000e-10
	7.227273999999999e-11

 37	0.000000000000000e+00
	2.270000000000000e+00
	1.420000000000004e+00
	1.792168000000000e-10
	7.320104000000000e-11

 38	0.000000000000000e+00
	2.320000000000000e+00
	1.370000000000004e+00
	1.874178000000000e-10
	7.428553999999999e-11

 39	0.000000000000000e+00
	2.370000000000000e+00
	1.320000000000004e+00
	1.965017000000000e-10
	7.552863999999999e-11

 40	0.000000000000000e+00
	2.420000000000000e+00
	1.270000000000004e+00
	2.066091000000000e-10
	7.697534000000000e-11

 41	0.000000000000000e+00
	2.470000000000000e+00
	1.220000000000004e+00
	2.155631000000000e-10
	7.823971999999999e-11

 42	0.000000000000000e+00
	2.520000000000000e+00
	1.170000000000004e+00
	2.248907000000000e-10
	7.957873000000000e-11

 43	0.000000000000000e+00
	2.569999999999999e+00
	1.120000000000004e+00
	2.353711000000000e-10
	8.112412000000000e-11

 44	0.000000000000000e+00
	2.619999999999999e+00
	1.070000000000004e+00
	2.473768000000000e-10
	8.294100000000000e-11

 45	0.000000000000000e+00
	2.669999999999999e+00
	1.020000000000004e+00
	2.615066000000000e-10
	8.515898000000000e-11

 46	0.000000000000000e+00
	2.719999999999999e+00
	9.700000000000035e-01
	2.771617000000000e-10
	8.761977000000000e-11

 47	0.000000000000000e+00
	2.769999999999999e+00
	9.200000000000035e-01
	2.939746000000000e-10
	9.021912999999999e-11

 48	0.000000000000000e+00
	2.819999999999999e+00
	8.700000000000034e-01
	3.129750000000000e-10
	9.316133999999999e-11

 49	0.000000000000000e+00
	2.869999999999998e+00
	8.200000000000034e-01
	3.319431000000000e-10
	9.602235999999999e-11

 50	0.000000000000000e+00
	2.919999999999998e+00
	7.700000000000033e-01
	3.499346000000000e-10
	9.862073999999999e-11

 51	0.000000000000000e+00
	2.969999999999998e+00
	7.200000000000033e-01
	3.717600000000000e-10
	1.018780000000000e-10

 52	0.000000000000000e+00
	3.019999999999998e+00
	6.700000000000033e-01
	3.986157000000000e-10
	1.060027000000000e-10

 53	0.000000000000000e+00
	3.069999999999998e+00
	6.200000000000032e-01
	4.320213000000000e-10
	1.113195000000000e-10

 54	0.000000000000000e+00
	3.119999999999997e+00
	5.700000000000032e-01
	4.744911000000000e-10
	1.181947000000000e-10

 55	0.000000000000000e+00
	3.169999999999997e+00
	5.200000000000031e-01
	5.211224000000000e-10
	1.257505000000000e-10

 56	0.000000000000000e+00
	3.219999999999997e+00
	4.700000000000031e-01
	5.736296000000001e-10
	1.344271000000000e-10

